
T1DD4 000:379 SEGGER J-Link V4.96d Log File (0000ms, 0283ms total)
T1DD4 000:379 DLL Compiled: Jan 29 2015 11:45:37 (0000ms, 0283ms total)
T1DD4 000:379 Logging started @ 2020-06-17 16:32 (0000ms, 0283ms total)
T1DD4 000:379 JLINK_SetWarnOutHandler(...) (0000ms, 0283ms total)
T1DD4 000:379 JLINK_OpenEx(...)
Firmware: J-Link OB-STM32F072-CortexM compiled Jan  7 2019 14:09:37
Hardware: V1.00
Feature(s): GDB, RDI, FlashBP, FlashDL, JFlash, RDDI  returns O.K. (0269ms, 0552ms total)
T1DD4 000:648 JLINK_SetErrorOutHandler(...) (0000ms, 0552ms total)
T1DD4 000:648 JLINK_ExecCommand("ProjectFile = "D:\Johhn\bu01\bu01\software\user_firmware\test\test1\SDK\Project\ds_twr_init\MDK-ARM\JLinkSettings.ini"", ...)  returns 0x00 (0000ms, 0552ms total)
T1DD4 000:651 JLINK_ExecCommand("Device = STM32F103C8", ...)Device "STM32F103C8" selected.  returns 0x00 (0005ms, 0557ms total)
T1DD4 000:656 JLINK_ExecCommand("DisableConnectionTimeout", ...)  returns 0x01 (0000ms, 0557ms total)
T1DD4 000:656 JLINK_GetHardwareVersion()  returns 0x2710 (0000ms, 0557ms total)
T1DD4 000:656 JLINK_GetDLLVersion()  returns 49604 (0000ms, 0557ms total)
T1DD4 000:656 JLINK_GetFirmwareString(...) (0000ms, 0557ms total)
T1DD4 000:676 JLINK_GetDLLVersion()  returns 49604 (0000ms, 0557ms total)
T1DD4 000:676 JLINK_GetCompileDateTime() (0000ms, 0557ms total)
T1DD4 000:685 JLINK_GetFirmwareString(...) (0000ms, 0557ms total)
T1DD4 000:688 JLINK_GetHardwareVersion()  returns 0x2710 (0000ms, 0557ms total)
T1DD4 000:700 JLINK_TIF_Select(JLINKARM_TIF_SWD)  returns 0x00 (0001ms, 0558ms total)
T1DD4 000:701 JLINK_SetSpeed(20000) (0000ms, 0558ms total)
T1DD4 000:701 JLINK_GetId() >0x108 TIF>Found SWD-DP with ID 0x1BA01477 >0x0D TIF> >0x28 TIF> >0x0D TIF> >0x28 TIF> >0x0D TIF> >0x21 TIF> >0x0D TIF> >0x28 TIF> >0x0D TIF> >0x28 TIF> >0x0D TIF> >0x28 TIF> >0x0D TIF> >0x21 TIF> >0x0D TIF> >0x21 TIF> >0x0D TIF> >0x28 TIF> >0x0D TIF> >0x21 TIF> >0x0D TIF> >0x21 TIF> >0x108 TIF>Found SWD-DP with ID 0x1BA01477 >0x0D TIF> >0x21 TIF> >0x0D TIF> >0x28 TIF> >0x0D TIF> >0x28 TIF> >0x0D TIF> >0x21 TIF> >0x0D TIF> >0x28 TIF> >0x0D TIF> >0x21 TIF> >0x0D TIF> >0x21 TIF>
 >0x0D TIF> >0x21 TIF> >0x0D TIF> >0x21 TIF> >0x0D TIF> >0x28 TIF> >0x0D TIF> >0x28 TIF> >0x0D TIF> >0x21 TIF> >0x0D TIF> >0x28 TIF> >0x0D TIF> >0x28 TIF> >0x0D TIF> >0x28 TIF> >0x0D TIF> >0x21 TIF> >0x0D TIF> >0x21 TIF> >0x0D TIF> >0x28 TIF> >0x0D TIF> >0x21 TIF> >0x0D TIF> >0x21 TIF>Found Cortex-M3 r1p1, Little endian. -- CPU_WriteMem(4 bytes @ 0xE0002000) -- CPU_ReadMem(4 bytes @ 0xE000EDF0) -- CPU_ReadMem(4 bytes @ 0xE0002000)FPUnit: 6 code (BP) slots and 2 literal slots
 -- CPU_ReadMem(4 bytes @ 0xE000EDFC) -- CPU_ReadMem(4 bytes @ 0xE0001000) -- CPU_WriteMem(4 bytes @ 0xE0001000) -- CPU_ReadMem(4 bytes @ 0xE000ED88) -- CPU_WriteMem(4 bytes @ 0xE000ED88) -- CPU_ReadMem(4 bytes @ 0xE000ED88) -- CPU_WriteMem(4 bytes @ 0xE000ED88) -- CPU_ReadMem(4 bytes @ 0xE00FF010)TPIU fitted. -- CPU_ReadMem(4 bytes @ 0xE00FF014) -- CPU_ReadMem(4 bytes @ 0xE00FF018) >0x0D TIF> >0x21 TIF>  returns 0x1BA01477 (0047ms, 0605ms total)
T1DD4 000:748 JLINK_GetDLLVersion()  returns 49604 (0000ms, 0605ms total)
T1DD4 000:748 JLINK_CORE_GetFound()  returns 0x30000FF (0000ms, 0605ms total)
T1DD4 000:748 JLINK_GetDebugInfo(0x100) -- Value=0xE00FF003  returns 0x00 (0000ms, 0605ms total)
T1DD4 000:751 JLINK_ReadMem (0xE00FF000, 0x0020 Bytes, ...) -- CPU is running -- CPU_ReadMem(32 bytes @ 0xE00FF000) - Data: 03 F0 F0 FF 03 20 F0 FF 03 30 F0 FF 03 10 F0 FF ...  returns 0x00 (0001ms, 0606ms total)
T1DD4 000:752 JLINK_ReadMem (0xE000EFF0, 0x0010 Bytes, ...) -- CPU is running -- CPU_ReadMem(16 bytes @ 0xE000EFF0) - Data: 0D 00 00 00 E0 00 00 00 05 00 00 00 B1 00 00 00  returns 0x00 (0000ms, 0606ms total)
T1DD4 000:752 JLINK_ReadMem (0xE000EFD0, 0x0020 Bytes, ...) -- CPU is running -- CPU_ReadMem(32 bytes @ 0xE000EFD0) - Data: 04 00 00 00 00 00 00 00 00 00 00 00 00 00 00 00 ...  returns 0x00 (0001ms, 0607ms total)
T1DD4 000:753 JLINK_ReadMem (0xE0001FF0, 0x0010 Bytes, ...) -- CPU is running -- CPU_ReadMem(16 bytes @ 0xE0001FF0) - Data: 0D 00 00 00 E0 00 00 00 05 00 00 00 B1 00 00 00  returns 0x00 (0001ms, 0608ms total)
T1DD4 000:754 JLINK_ReadMem (0xE0001FD0, 0x0020 Bytes, ...) -- CPU is running -- CPU_ReadMem(32 bytes @ 0xE0001FD0) - Data: 04 00 00 00 00 00 00 00 00 00 00 00 00 00 00 00 ...  returns 0x00 (0001ms, 0609ms total)
T1DD4 000:755 JLINK_ReadMem (0xE0002FF0, 0x0010 Bytes, ...) -- CPU is running -- CPU_ReadMem(16 bytes @ 0xE0002FF0) - Data: 0D 00 00 00 E0 00 00 00 05 00 00 00 B1 00 00 00  returns 0x00 (0000ms, 0609ms total)
T1DD4 000:755 JLINK_ReadMem (0xE0002FD0, 0x0020 Bytes, ...) -- CPU is running -- CPU_ReadMem(32 bytes @ 0xE0002FD0) - Data: 04 00 00 00 00 00 00 00 00 00 00 00 00 00 00 00 ...  returns 0x00 (0001ms, 0610ms total)
T1DD4 000:756 JLINK_ReadMem (0xE0000FF0, 0x0010 Bytes, ...) -- CPU is running -- CPU_ReadMem(16 bytes @ 0xE0000FF0) - Data: 0D 00 00 00 E0 00 00 00 05 00 00 00 B1 00 00 00  returns 0x00 (0001ms, 0611ms total)
T1DD4 000:757 JLINK_ReadMem (0xE0000FD0, 0x0020 Bytes, ...) -- CPU is running -- CPU_ReadMem(32 bytes @ 0xE0000FD0) - Data: 04 00 00 00 00 00 00 00 00 00 00 00 00 00 00 00 ...  returns 0x00 (0001ms, 0612ms total)
T1DD4 000:758 JLINK_ReadMem (0xE0040FF0, 0x0010 Bytes, ...) -- CPU is running -- CPU_ReadMem(16 bytes @ 0xE0040FF0) - Data: 0D 00 00 00 90 00 00 00 05 00 00 00 B1 00 00 00  returns 0x00 (0000ms, 0612ms total)
T1DD4 000:758 JLINK_ReadMem (0xE0040FD0, 0x0020 Bytes, ...) -- CPU is running -- CPU_ReadMem(32 bytes @ 0xE0040FD0) - Data: 04 00 00 00 00 00 00 00 00 00 00 00 00 00 00 00 ...  returns 0x00 (0001ms, 0613ms total)
T1DD4 000:759 JLINK_ReadMemU32(0xE000ED00, 0x0001 Items, ...) -- CPU is running -- CPU_ReadMem(4 bytes @ 0xE000ED00) - Data: 31 C2 1F 41  returns 0x01 (0001ms, 0614ms total)
T1DD4 000:760 JLINK_SetResetType(JLINKARM_RESET_TYPE_NORMAL)  returns JLINKARM_RESET_TYPE_NORMAL (0000ms, 0614ms total)
T1DD4 000:760 JLINK_Reset() -- CPU is running -- CPU_WriteMem(4 bytes @ 0xE000EDF0) -- CPU is running -- CPU_WriteMem(4 bytes @ 0xE000EDFC) >0x35 TIF> -- CPU is running -- CPU_WriteMem(4 bytes @ 0xE000ED0C) -- CPU is running -- CPU_ReadMem(4 bytes @ 0xE000EDF0) -- CPU is running -- CPU_ReadMem(4 bytes @ 0xE000EDF0) -- CPU is running -- CPU_WriteMem(4 bytes @ 0xE000EDF0) -- CPU is running -- CPU_WriteMem(4 bytes @ 0xE000EDFC) -- CPU is running -- CPU_ReadMem(4 bytes @ 0xE000EDF0)
 -- CPU_WriteMem(4 bytes @ 0xE0002000) -- CPU_ReadMem(4 bytes @ 0xE000EDFC) -- CPU_ReadMem(4 bytes @ 0xE0001000) (0022ms, 0636ms total)
T1DD4 000:782 JLINK_Halt()  returns 0x00 (0000ms, 0636ms total)
T1DD4 000:782 JLINK_IsHalted()  returns TRUE (0000ms, 0636ms total)
T1DD4 000:782 JLINK_ReadMemU32(0xE000EDF0, 0x0001 Items, ...) -- CPU_ReadMem(4 bytes @ 0xE000EDF0) - Data: 03 00 03 00  returns 0x01 (0001ms, 0637ms total)
T1DD4 000:783 JLINK_WriteU32(0xE000EDF0, 0xA05F0003) -- CPU_WriteMem(4 bytes @ 0xE000EDF0)  returns 0x00 (0001ms, 0638ms total)
T1DD4 000:784 JLINK_WriteU32(0xE000EDFC, 0x01000000) -- CPU_WriteMem(4 bytes @ 0xE000EDFC)  returns 0x00 (0000ms, 0638ms total)
T1DD4 000:807 JLINK_GetHWStatus(...)  returns 0x00 (0000ms, 0638ms total)
T1DD4 000:817 JLINK_GetNumBPUnits(Type = 0xFFFFFF00)  returns 0x06 (0000ms, 0638ms total)
T1DD4 000:817 JLINK_GetNumBPUnits(Type = 0xF0)  returns 0x2000 (0000ms, 0638ms total)
T1DD4 000:817 JLINK_GetNumWPUnits()  returns 0x04 (0000ms, 0638ms total)
T1DD4 000:828 JLINK_GetSpeed()  returns 0x7D0 (0000ms, 0638ms total)
T1DD4 000:834 JLINK_ReadMemU32(0xE000E004, 0x0001 Items, ...) -- CPU_ReadMem(4 bytes @ 0xE000E004) - Data: 01 00 00 00  returns 0x01 (0001ms, 0639ms total)
T1DD4 000:835 JLINK_ReadMemU32(0xE000E004, 0x0001 Items, ...) -- CPU_ReadMem(4 bytes @ 0xE000E004) - Data: 01 00 00 00  returns 0x01 (0000ms, 0639ms total)
T1DD4 000:835 JLINK_WriteMem(0xE0001000, 0x001C Bytes, ...) - Data: 01 00 00 00 00 00 00 00 00 00 00 00 00 00 00 00 ... -- CPU_WriteMem(28 bytes @ 0xE0001000)  returns 0x1C (0002ms, 0641ms total)
T1DD4 000:837 JLINK_ReadMem (0xE0001000, 0x001C Bytes, ...) -- CPU_ReadMem(28 bytes @ 0xE0001000) - Data: 01 00 00 40 00 00 00 00 00 00 00 00 00 00 00 00 ...  returns 0x00 (0001ms, 0642ms total)
T1DD4 000:838 JLINK_Halt()  returns 0x00 (0000ms, 0642ms total)
T1DD4 000:838 JLINK_IsHalted()  returns TRUE (0000ms, 0642ms total)
T1DD4 000:841 JLINK_WriteMem(0x20000000, 0x0164 Bytes, ...) - Data: 00 BE 0A E0 0D 78 2D 06 68 40 08 24 40 00 00 D3 ... -- CPU_WriteMem(356 bytes @ 0x20000000)  returns 0x164 (0004ms, 0646ms total)
T1DD4 000:845 JLINK_WriteReg(R0, 0x08000000)  returns 0x00 (0000ms, 0646ms total)
T1DD4 000:845 JLINK_WriteReg(R1, 0x00B71B00)  returns 0x00 (0000ms, 0646ms total)
T1DD4 000:845 JLINK_WriteReg(R2, 0x00000001)  returns 0x00 (0000ms, 0646ms total)
T1DD4 000:845 JLINK_WriteReg(R3, 0x00000000)  returns 0x00 (0000ms, 0646ms total)
T1DD4 000:845 JLINK_WriteReg(R4, 0x00000000)  returns 0x00 (0000ms, 0646ms total)
T1DD4 000:845 JLINK_WriteReg(R5, 0x00000000)  returns 0x00 (0000ms, 0646ms total)
T1DD4 000:845 JLINK_WriteReg(R6, 0x00000000)  returns 0x00 (0000ms, 0646ms total)
T1DD4 000:845 JLINK_WriteReg(R7, 0x00000000)  returns 0x00 (0000ms, 0646ms total)
T1DD4 000:845 JLINK_WriteReg(R8, 0x00000000)  returns 0x00 (0000ms, 0646ms total)
T1DD4 000:845 JLINK_WriteReg(R9, 0x20000160)  returns 0x00 (0000ms, 0646ms total)
T1DD4 000:845 JLINK_WriteReg(R10, 0x00000000)  returns 0x00 (0000ms, 0646ms total)
T1DD4 000:845 JLINK_WriteReg(R11, 0x00000000)  returns 0x00 (0000ms, 0646ms total)
T1DD4 000:845 JLINK_WriteReg(R12, 0x00000000)  returns 0x00 (0001ms, 0647ms total)
T1DD4 000:846 JLINK_WriteReg(R13 (SP), 0x20001000)  returns 0x00 (0000ms, 0647ms total)
T1DD4 000:846 JLINK_WriteReg(R14, 0x20000001)  returns 0x00 (0000ms, 0647ms total)
T1DD4 000:846 JLINK_WriteReg(R15 (PC), 0x20000038)  returns 0x00 (0000ms, 0647ms total)
T1DD4 000:846 JLINK_WriteReg(XPSR, 0x01000000)  returns 0x00 (0000ms, 0647ms total)
T1DD4 000:846 JLINK_WriteReg(MSP, 0x20001000)  returns 0x00 (0000ms, 0647ms total)
T1DD4 000:846 JLINK_WriteReg(PSP, 0x20001000)  returns 0x00 (0000ms, 0647ms total)
T1DD4 000:846 JLINK_WriteReg(CFBP, 0x00000000)  returns 0x00 (0000ms, 0647ms total)
T1DD4 000:846 JLINK_SetBPEx(Addr = 0x20000000, Type = 0xFFFFFFF2) -- CPU_ReadMem(2 bytes @ 0x20000000)  returns 0x00000001 (0000ms, 0647ms total)
T1DD4 000:846 JLINK_Go() -- CPU_WriteMem(2 bytes @ 0x20000000) -- CPU_WriteMem(4 bytes @ 0xE0002008) -- CPU_WriteMem(4 bytes @ 0xE000200C) -- CPU_WriteMem(4 bytes @ 0xE0002010) -- CPU_WriteMem(4 bytes @ 0xE0002014) -- CPU_WriteMem(4 bytes @ 0xE0002018) -- CPU_WriteMem(4 bytes @ 0xE000201C) -- CPU_WriteMem(4 bytes @ 0xE0001004) (0007ms, 0654ms total)
T1DD4 000:853 JLINK_IsHalted() -- CPU_ReadMem(2 bytes @ 0x20000000)  returns TRUE (0005ms, 0659ms total)
T1DD4 000:858 JLINK_ReadReg(R15 (PC))  returns 0x20000000 (0000ms, 0654ms total)
T1DD4 000:858 JLINK_ClrBPEx(BPHandle = 0x00000001)  returns 0x00 (0000ms, 0654ms total)
T1DD4 000:858 JLINK_ReadReg(R0)  returns 0x00000000 (0000ms, 0654ms total)
T1DD4 000:859 JLINK_WriteReg(R0, 0x08000000)  returns 0x00 (0000ms, 0654ms total)
T1DD4 000:859 JLINK_WriteReg(R1, 0x00B71B00)  returns 0x00 (0000ms, 0654ms total)
T1DD4 000:859 JLINK_WriteReg(R2, 0x00000001)  returns 0x00 (0000ms, 0654ms total)
T1DD4 000:859 JLINK_WriteReg(R3, 0x00000000)  returns 0x00 (0000ms, 0654ms total)
T1DD4 000:859 JLINK_WriteReg(R4, 0x00000000)  returns 0x00 (0000ms, 0654ms total)
T1DD4 000:859 JLINK_WriteReg(R5, 0x00000000)  returns 0x00 (0000ms, 0654ms total)
T1DD4 000:859 JLINK_WriteReg(R6, 0x00000000)  returns 0x00 (0000ms, 0654ms total)
T1DD4 000:859 JLINK_WriteReg(R7, 0x00000000)  returns 0x00 (0000ms, 0654ms total)
T1DD4 000:859 JLINK_WriteReg(R8, 0x00000000)  returns 0x00 (0000ms, 0654ms total)
T1DD4 000:859 JLINK_WriteReg(R9, 0x20000160)  returns 0x00 (0000ms, 0654ms total)
T1DD4 000:859 JLINK_WriteReg(R10, 0x00000000)  returns 0x00 (0000ms, 0654ms total)
T1DD4 000:859 JLINK_WriteReg(R11, 0x00000000)  returns 0x00 (0000ms, 0654ms total)
T1DD4 000:859 JLINK_WriteReg(R12, 0x00000000)  returns 0x00 (0000ms, 0654ms total)
T1DD4 000:859 JLINK_WriteReg(R13 (SP), 0x20001000)  returns 0x00 (0000ms, 0654ms total)
T1DD4 000:859 JLINK_WriteReg(R14, 0x20000001)  returns 0x00 (0000ms, 0654ms total)
T1DD4 000:859 JLINK_WriteReg(R15 (PC), 0x2000007C)  returns 0x00 (0000ms, 0654ms total)
T1DD4 000:859 JLINK_WriteReg(XPSR, 0x01000000)  returns 0x00 (0000ms, 0654ms total)
T1DD4 000:859 JLINK_WriteReg(MSP, 0x20001000)  returns 0x00 (0000ms, 0654ms total)
T1DD4 000:859 JLINK_WriteReg(PSP, 0x20001000)  returns 0x00 (0000ms, 0654ms total)
T1DD4 000:859 JLINK_WriteReg(CFBP, 0x00000000)  returns 0x00 (0000ms, 0654ms total)
T1DD4 000:859 JLINK_SetBPEx(Addr = 0x20000000, Type = 0xFFFFFFF2)  returns 0x00000002 (0000ms, 0654ms total)
T1DD4 000:859 JLINK_Go() (0002ms, 0656ms total)
T1DD4 000:861 JLINK_IsHalted()  returns FALSE (0001ms, 0657ms total)
T1DD4 000:927 JLINK_IsHalted() -- CPU_ReadMem(2 bytes @ 0x20000000)  returns TRUE (0005ms, 0661ms total)
T1DD4 000:932 JLINK_ReadReg(R15 (PC))  returns 0x20000000 (0000ms, 0656ms total)
T1DD4 000:932 JLINK_ClrBPEx(BPHandle = 0x00000002)  returns 0x00 (0000ms, 0656ms total)
T1DD4 000:932 JLINK_ReadReg(R0)  returns 0x00000000 (0000ms, 0656ms total)
T1DD4 000:984 JLINK_WriteReg(R0, 0x00000001)  returns 0x00 (0000ms, 0656ms total)
T1DD4 000:984 JLINK_WriteReg(R1, 0x00B71B00)  returns 0x00 (0000ms, 0656ms total)
T1DD4 000:984 JLINK_WriteReg(R2, 0x00000001)  returns 0x00 (0000ms, 0656ms total)
T1DD4 000:984 JLINK_WriteReg(R3, 0x00000000)  returns 0x00 (0000ms, 0656ms total)
T1DD4 000:984 JLINK_WriteReg(R4, 0x00000000)  returns 0x00 (0000ms, 0656ms total)
T1DD4 000:984 JLINK_WriteReg(R5, 0x00000000)  returns 0x00 (0000ms, 0656ms total)
T1DD4 000:984 JLINK_WriteReg(R6, 0x00000000)  returns 0x00 (0000ms, 0656ms total)
T1DD4 000:984 JLINK_WriteReg(R7, 0x00000000)  returns 0x00 (0000ms, 0656ms total)
T1DD4 000:984 JLINK_WriteReg(R8, 0x00000000)  returns 0x00 (0000ms, 0656ms total)
T1DD4 000:984 JLINK_WriteReg(R9, 0x20000160)  returns 0x00 (0000ms, 0656ms total)
T1DD4 000:984 JLINK_WriteReg(R10, 0x00000000)  returns 0x00 (0000ms, 0656ms total)
T1DD4 000:984 JLINK_WriteReg(R11, 0x00000000)  returns 0x00 (0000ms, 0656ms total)
T1DD4 000:984 JLINK_WriteReg(R12, 0x00000000)  returns 0x00 (0000ms, 0656ms total)
T1DD4 000:984 JLINK_WriteReg(R13 (SP), 0x20001000)  returns 0x00 (0000ms, 0656ms total)
T1DD4 000:984 JLINK_WriteReg(R14, 0x20000001)  returns 0x00 (0000ms, 0656ms total)
T1DD4 000:984 JLINK_WriteReg(R15 (PC), 0x2000006A)  returns 0x00 (0000ms, 0656ms total)
T1DD4 000:984 JLINK_WriteReg(XPSR, 0x01000000)  returns 0x00 (0000ms, 0656ms total)
T1DD4 000:984 JLINK_WriteReg(MSP, 0x20001000)  returns 0x00 (0000ms, 0656ms total)
T1DD4 000:984 JLINK_WriteReg(PSP, 0x20001000)  returns 0x00 (0000ms, 0656ms total)
T1DD4 000:984 JLINK_WriteReg(CFBP, 0x00000000)  returns 0x00 (0000ms, 0656ms total)
T1DD4 000:984 JLINK_SetBPEx(Addr = 0x20000000, Type = 0xFFFFFFF2)  returns 0x00000003 (0000ms, 0656ms total)
T1DD4 000:984 JLINK_Go() (0002ms, 0658ms total)
T1DD4 000:986 JLINK_IsHalted() -- CPU_ReadMem(2 bytes @ 0x20000000)  returns TRUE (0006ms, 0664ms total)
T1DD4 000:992 JLINK_ReadReg(R15 (PC))  returns 0x20000000 (0000ms, 0658ms total)
T1DD4 000:992 JLINK_ClrBPEx(BPHandle = 0x00000003)  returns 0x00 (0000ms, 0658ms total)
T1DD4 000:992 JLINK_ReadReg(R0)  returns 0x00000000 (0000ms, 0658ms total)
T1DD4 000:998 JLINK_WriteMem(0x20000000, 0x0164 Bytes, ...) - Data: 00 BE 0A E0 0D 78 2D 06 68 40 08 24 40 00 00 D3 ... -- CPU_WriteMem(356 bytes @ 0x20000000)  returns 0x164 (0005ms, 0663ms total)
T1DD4 001:003 JLINK_WriteReg(R0, 0x08000000)  returns 0x00 (0000ms, 0663ms total)
T1DD4 001:003 JLINK_WriteReg(R1, 0x00B71B00)  returns 0x00 (0000ms, 0663ms total)
T1DD4 001:003 JLINK_WriteReg(R2, 0x00000002)  returns 0x00 (0000ms, 0663ms total)
T1DD4 001:003 JLINK_WriteReg(R3, 0x00000000)  returns 0x00 (0000ms, 0663ms total)
T1DD4 001:003 JLINK_WriteReg(R4, 0x00000000)  returns 0x00 (0000ms, 0663ms total)
T1DD4 001:003 JLINK_WriteReg(R5, 0x00000000)  returns 0x00 (0000ms, 0663ms total)
T1DD4 001:003 JLINK_WriteReg(R6, 0x00000000)  returns 0x00 (0000ms, 0663ms total)
T1DD4 001:003 JLINK_WriteReg(R7, 0x00000000)  returns 0x00 (0000ms, 0663ms total)
T1DD4 001:003 JLINK_WriteReg(R8, 0x00000000)  returns 0x00 (0000ms, 0663ms total)
T1DD4 001:003 JLINK_WriteReg(R9, 0x20000160)  returns 0x00 (0000ms, 0663ms total)
T1DD4 001:003 JLINK_WriteReg(R10, 0x00000000)  returns 0x00 (0000ms, 0663ms total)
T1DD4 001:003 JLINK_WriteReg(R11, 0x00000000)  returns 0x00 (0000ms, 0663ms total)
T1DD4 001:003 JLINK_WriteReg(R12, 0x00000000)  returns 0x00 (0000ms, 0663ms total)
T1DD4 001:003 JLINK_WriteReg(R13 (SP), 0x20001000)  returns 0x00 (0000ms, 0663ms total)
T1DD4 001:003 JLINK_WriteReg(R14, 0x20000001)  returns 0x00 (0000ms, 0663ms total)
T1DD4 001:003 JLINK_WriteReg(R15 (PC), 0x20000038)  returns 0x00 (0000ms, 0663ms total)
T1DD4 001:003 JLINK_WriteReg(XPSR, 0x01000000)  returns 0x00 (0000ms, 0663ms total)
T1DD4 001:003 JLINK_WriteReg(MSP, 0x20001000)  returns 0x00 (0000ms, 0663ms total)
T1DD4 001:003 JLINK_WriteReg(PSP, 0x20001000)  returns 0x00 (0000ms, 0663ms total)
T1DD4 001:003 JLINK_WriteReg(CFBP, 0x00000000)  returns 0x00 (0000ms, 0663ms total)
T1DD4 001:003 JLINK_SetBPEx(Addr = 0x20000000, Type = 0xFFFFFFF2) -- CPU_ReadMem(2 bytes @ 0x20000000)  returns 0x00000004 (0001ms, 0664ms total)
T1DD4 001:004 JLINK_Go() -- CPU_WriteMem(2 bytes @ 0x20000000) (0003ms, 0667ms total)
T1DD4 001:007 JLINK_IsHalted() -- CPU_ReadMem(2 bytes @ 0x20000000)  returns TRUE (0005ms, 0672ms total)
T1DD4 001:012 JLINK_ReadReg(R15 (PC))  returns 0x20000000 (0000ms, 0667ms total)
T1DD4 001:012 JLINK_ClrBPEx(BPHandle = 0x00000004)  returns 0x00 (0000ms, 0667ms total)
T1DD4 001:012 JLINK_ReadReg(R0)  returns 0x00000000 (0000ms, 0667ms total)
T1DD4 001:012 JLINK_WriteMem(0x20000164, 0x0400 Bytes, ...) - Data: D0 12 00 20 45 01 00 08 2B 19 00 08 19 16 00 08 ... -- CPU_WriteMem(1024 bytes @ 0x20000164)  returns 0x400 (0011ms, 0678ms total)
T1DD4 001:023 JLINK_WriteReg(R0, 0x08000000)  returns 0x00 (0000ms, 0678ms total)
T1DD4 001:023 JLINK_WriteReg(R1, 0x00000400)  returns 0x00 (0000ms, 0678ms total)
T1DD4 001:023 JLINK_WriteReg(R2, 0x20000164)  returns 0x00 (0000ms, 0678ms total)
T1DD4 001:023 JLINK_WriteReg(R3, 0x00000000)  returns 0x00 (0000ms, 0678ms total)
T1DD4 001:023 JLINK_WriteReg(R4, 0x00000000)  returns 0x00 (0000ms, 0678ms total)
T1DD4 001:023 JLINK_WriteReg(R5, 0x00000000)  returns 0x00 (0000ms, 0678ms total)
T1DD4 001:023 JLINK_WriteReg(R6, 0x00000000)  returns 0x00 (0000ms, 0678ms total)
T1DD4 001:023 JLINK_WriteReg(R7, 0x00000000)  returns 0x00 (0000ms, 0678ms total)
T1DD4 001:023 JLINK_WriteReg(R8, 0x00000000)  returns 0x00 (0000ms, 0678ms total)
T1DD4 001:023 JLINK_WriteReg(R9, 0x20000160)  returns 0x00 (0000ms, 0678ms total)
T1DD4 001:023 JLINK_WriteReg(R10, 0x00000000)  returns 0x00 (0000ms, 0678ms total)
T1DD4 001:023 JLINK_WriteReg(R11, 0x00000000)  returns 0x00 (0000ms, 0678ms total)
T1DD4 001:023 JLINK_WriteReg(R12, 0x00000000)  returns 0x00 (0000ms, 0678ms total)
T1DD4 001:023 JLINK_WriteReg(R13 (SP), 0x20001000)  returns 0x00 (0000ms, 0678ms total)
T1DD4 001:023 JLINK_WriteReg(R14, 0x20000001)  returns 0x00 (0000ms, 0678ms total)
T1DD4 001:023 JLINK_WriteReg(R15 (PC), 0x200000F4)  returns 0x00 (0000ms, 0678ms total)
T1DD4 001:023 JLINK_WriteReg(XPSR, 0x01000000)  returns 0x00 (0000ms, 0678ms total)
T1DD4 001:023 JLINK_WriteReg(MSP, 0x20001000)  returns 0x00 (0000ms, 0678ms total)
T1DD4 001:023 JLINK_WriteReg(PSP, 0x20001000)  returns 0x00 (0000ms, 0678ms total)
T1DD4 001:023 JLINK_WriteReg(CFBP, 0x00000000)  returns 0x00 (0000ms, 0678ms total)
T1DD4 001:023 JLINK_SetBPEx(Addr = 0x20000000, Type = 0xFFFFFFF2)  returns 0x00000005 (0000ms, 0678ms total)
T1DD4 001:023 JLINK_Go() (0003ms, 0681ms total)
T1DD4 001:026 JLINK_IsHalted()  returns FALSE (0001ms, 0682ms total)
T1DD4 001:047 JLINK_IsHalted()  returns FALSE (0000ms, 0681ms total)
T1DD4 001:049 JLINK_IsHalted()  returns FALSE (0001ms, 0682ms total)
T1DD4 001:052 JLINK_IsHalted()  returns FALSE (0001ms, 0682ms total)
T1DD4 001:055 JLINK_IsHalted()  returns FALSE (0000ms, 0681ms total)
T1DD4 001:062 JLINK_IsHalted() -- CPU_ReadMem(2 bytes @ 0x20000000)  returns TRUE (0006ms, 0687ms total)
T1DD4 001:068 JLINK_ReadReg(R15 (PC))  returns 0x20000000 (0000ms, 0681ms total)
T1DD4 001:068 JLINK_ClrBPEx(BPHandle = 0x00000005)  returns 0x00 (0000ms, 0681ms total)
T1DD4 001:068 JLINK_ReadReg(R0)  returns 0x00000000 (0000ms, 0681ms total)
T1DD4 001:069 JLINK_WriteMem(0x20000164, 0x0400 Bytes, ...) - Data: 00 1B 61 EB 02 01 4F F0 00 42 02 EA 07 52 CD E9 ... -- CPU_WriteMem(1024 bytes @ 0x20000164)  returns 0x400 (0011ms, 0692ms total)
T1DD4 001:080 JLINK_WriteReg(R0, 0x08000400)  returns 0x00 (0000ms, 0692ms total)
T1DD4 001:080 JLINK_WriteReg(R1, 0x00000400)  returns 0x00 (0000ms, 0692ms total)
T1DD4 001:080 JLINK_WriteReg(R2, 0x20000164)  returns 0x00 (0000ms, 0692ms total)
T1DD4 001:080 JLINK_WriteReg(R3, 0x00000000)  returns 0x00 (0000ms, 0692ms total)
T1DD4 001:080 JLINK_WriteReg(R4, 0x00000000)  returns 0x00 (0000ms, 0692ms total)
T1DD4 001:080 JLINK_WriteReg(R5, 0x00000000)  returns 0x00 (0000ms, 0692ms total)
T1DD4 001:080 JLINK_WriteReg(R6, 0x00000000)  returns 0x00 (0000ms, 0692ms total)
T1DD4 001:080 JLINK_WriteReg(R7, 0x00000000)  returns 0x00 (0000ms, 0692ms total)
T1DD4 001:080 JLINK_WriteReg(R8, 0x00000000)  returns 0x00 (0000ms, 0692ms total)
T1DD4 001:080 JLINK_WriteReg(R9, 0x20000160)  returns 0x00 (0000ms, 0692ms total)
T1DD4 001:080 JLINK_WriteReg(R10, 0x00000000)  returns 0x00 (0000ms, 0692ms total)
T1DD4 001:080 JLINK_WriteReg(R11, 0x00000000)  returns 0x00 (0000ms, 0692ms total)
T1DD4 001:080 JLINK_WriteReg(R12, 0x00000000)  returns 0x00 (0000ms, 0692ms total)
T1DD4 001:080 JLINK_WriteReg(R13 (SP), 0x20001000)  returns 0x00 (0000ms, 0692ms total)
T1DD4 001:080 JLINK_WriteReg(R14, 0x20000001)  returns 0x00 (0000ms, 0692ms total)
T1DD4 001:080 JLINK_WriteReg(R15 (PC), 0x200000F4)  returns 0x00 (0000ms, 0692ms total)
T1DD4 001:080 JLINK_WriteReg(XPSR, 0x01000000)  returns 0x00 (0000ms, 0692ms total)
T1DD4 001:080 JLINK_WriteReg(MSP, 0x20001000)  returns 0x00 (0000ms, 0692ms total)
T1DD4 001:080 JLINK_WriteReg(PSP, 0x20001000)  returns 0x00 (0000ms, 0692ms total)
T1DD4 001:080 JLINK_WriteReg(CFBP, 0x00000000)  returns 0x00 (0000ms, 0692ms total)
T1DD4 001:080 JLINK_SetBPEx(Addr = 0x20000000, Type = 0xFFFFFFF2)  returns 0x00000006 (0000ms, 0692ms total)
T1DD4 001:080 JLINK_Go() (0002ms, 0694ms total)
T1DD4 001:082 JLINK_IsHalted()  returns FALSE (0001ms, 0695ms total)
T1DD4 001:090 JLINK_IsHalted()  returns FALSE (0000ms, 0694ms total)
T1DD4 001:092 JLINK_IsHalted()  returns FALSE (0000ms, 0694ms total)
T1DD4 001:094 JLINK_IsHalted()  returns FALSE (0000ms, 0694ms total)
T1DD4 001:096 JLINK_IsHalted()  returns FALSE (0000ms, 0694ms total)
T1DD4 001:098 JLINK_IsHalted()  returns FALSE (0000ms, 0694ms total)
T1DD4 001:100 JLINK_IsHalted()  returns FALSE (0000ms, 0694ms total)
T1DD4 001:102 JLINK_IsHalted()  returns FALSE (0000ms, 0694ms total)
T1DD4 001:104 JLINK_IsHalted()  returns FALSE (0000ms, 0694ms total)
T1DD4 001:106 JLINK_IsHalted()  returns FALSE (0000ms, 0694ms total)
T1DD4 001:108 JLINK_IsHalted()  returns FALSE (0000ms, 0694ms total)
T1DD4 001:110 JLINK_IsHalted()  returns FALSE (0000ms, 0694ms total)
T1DD4 001:112 JLINK_IsHalted()  returns FALSE (0000ms, 0694ms total)
T1DD4 001:114 JLINK_IsHalted() -- CPU_ReadMem(2 bytes @ 0x20000000)  returns TRUE (0005ms, 0699ms total)
T1DD4 001:119 JLINK_ReadReg(R15 (PC))  returns 0x20000000 (0000ms, 0694ms total)
T1DD4 001:119 JLINK_ClrBPEx(BPHandle = 0x00000006)  returns 0x00 (0000ms, 0694ms total)
T1DD4 001:119 JLINK_ReadReg(R0)  returns 0x00000000 (0000ms, 0694ms total)
T1DD4 001:121 JLINK_WriteMem(0x20000164, 0x0400 Bytes, ...) - Data: 30 B5 04 1E 71 F1 00 04 04 DB 4F F0 00 44 40 42 ... -- CPU_WriteMem(1024 bytes @ 0x20000164)  returns 0x400 (0010ms, 0704ms total)
T1DD4 001:131 JLINK_WriteReg(R0, 0x08000800)  returns 0x00 (0000ms, 0704ms total)
T1DD4 001:131 JLINK_WriteReg(R1, 0x00000400)  returns 0x00 (0000ms, 0704ms total)
T1DD4 001:131 JLINK_WriteReg(R2, 0x20000164)  returns 0x00 (0000ms, 0704ms total)
T1DD4 001:131 JLINK_WriteReg(R3, 0x00000000)  returns 0x00 (0000ms, 0704ms total)
T1DD4 001:131 JLINK_WriteReg(R4, 0x00000000)  returns 0x00 (0000ms, 0704ms total)
T1DD4 001:131 JLINK_WriteReg(R5, 0x00000000)  returns 0x00 (0000ms, 0704ms total)
T1DD4 001:131 JLINK_WriteReg(R6, 0x00000000)  returns 0x00 (0000ms, 0704ms total)
T1DD4 001:131 JLINK_WriteReg(R7, 0x00000000)  returns 0x00 (0000ms, 0704ms total)
T1DD4 001:131 JLINK_WriteReg(R8, 0x00000000)  returns 0x00 (0001ms, 0705ms total)
T1DD4 001:132 JLINK_WriteReg(R9, 0x20000160)  returns 0x00 (0000ms, 0705ms total)
T1DD4 001:132 JLINK_WriteReg(R10, 0x00000000)  returns 0x00 (0000ms, 0705ms total)
T1DD4 001:132 JLINK_WriteReg(R11, 0x00000000)  returns 0x00 (0000ms, 0705ms total)
T1DD4 001:132 JLINK_WriteReg(R12, 0x00000000)  returns 0x00 (0000ms, 0705ms total)
T1DD4 001:132 JLINK_WriteReg(R13 (SP), 0x20001000)  returns 0x00 (0000ms, 0705ms total)
T1DD4 001:132 JLINK_WriteReg(R14, 0x20000001)  returns 0x00 (0000ms, 0705ms total)
T1DD4 001:132 JLINK_WriteReg(R15 (PC), 0x200000F4)  returns 0x00 (0000ms, 0705ms total)
T1DD4 001:132 JLINK_WriteReg(XPSR, 0x01000000)  returns 0x00 (0000ms, 0705ms total)
T1DD4 001:132 JLINK_WriteReg(MSP, 0x20001000)  returns 0x00 (0000ms, 0705ms total)
T1DD4 001:132 JLINK_WriteReg(PSP, 0x20001000)  returns 0x00 (0000ms, 0705ms total)
T1DD4 001:132 JLINK_WriteReg(CFBP, 0x00000000)  returns 0x00 (0000ms, 0705ms total)
T1DD4 001:132 JLINK_SetBPEx(Addr = 0x20000000, Type = 0xFFFFFFF2)  returns 0x00000007 (0000ms, 0705ms total)
T1DD4 001:132 JLINK_Go() (0002ms, 0707ms total)
T1DD4 001:134 JLINK_IsHalted()  returns FALSE (0000ms, 0707ms total)
T1DD4 001:136 JLINK_IsHalted()  returns FALSE (0000ms, 0707ms total)
T1DD4 001:138 JLINK_IsHalted()  returns FALSE (0000ms, 0707ms total)
T1DD4 001:140 JLINK_IsHalted()  returns FALSE (0000ms, 0707ms total)
T1DD4 001:142 JLINK_IsHalted()  returns FALSE (0000ms, 0707ms total)
T1DD4 001:144 JLINK_IsHalted()  returns FALSE (0000ms, 0707ms total)
T1DD4 001:146 JLINK_IsHalted()  returns FALSE (0000ms, 0707ms total)
T1DD4 001:148 JLINK_IsHalted()  returns FALSE (0000ms, 0707ms total)
T1DD4 001:150 JLINK_IsHalted()  returns FALSE (0000ms, 0707ms total)
T1DD4 001:157 JLINK_IsHalted()  returns FALSE (0000ms, 0707ms total)
T1DD4 001:159 JLINK_IsHalted()  returns FALSE (0001ms, 0708ms total)
T1DD4 001:161 JLINK_IsHalted()  returns FALSE (0001ms, 0708ms total)
T1DD4 001:163 JLINK_IsHalted()  returns FALSE (0001ms, 0708ms total)
T1DD4 001:166 JLINK_IsHalted() -- CPU_ReadMem(2 bytes @ 0x20000000)  returns TRUE (0005ms, 0712ms total)
T1DD4 001:171 JLINK_ReadReg(R15 (PC))  returns 0x20000000 (0000ms, 0707ms total)
T1DD4 001:171 JLINK_ClrBPEx(BPHandle = 0x00000007)  returns 0x00 (0000ms, 0707ms total)
T1DD4 001:171 JLINK_ReadReg(R0)  returns 0x00000000 (0000ms, 0707ms total)
T1DD4 001:172 JLINK_WriteMem(0x20000164, 0x0400 Bytes, ...) - Data: 1C 69 00 08 2D E9 F0 5F 82 46 00 78 00 27 15 46 ... -- CPU_WriteMem(1024 bytes @ 0x20000164)  returns 0x400 (0010ms, 0717ms total)
T1DD4 001:182 JLINK_WriteReg(R0, 0x08000C00)  returns 0x00 (0000ms, 0717ms total)
T1DD4 001:182 JLINK_WriteReg(R1, 0x00000400)  returns 0x00 (0000ms, 0717ms total)
T1DD4 001:182 JLINK_WriteReg(R2, 0x20000164)  returns 0x00 (0000ms, 0717ms total)
T1DD4 001:182 JLINK_WriteReg(R3, 0x00000000)  returns 0x00 (0000ms, 0717ms total)
T1DD4 001:182 JLINK_WriteReg(R4, 0x00000000)  returns 0x00 (0000ms, 0717ms total)
T1DD4 001:182 JLINK_WriteReg(R5, 0x00000000)  returns 0x00 (0000ms, 0717ms total)
T1DD4 001:182 JLINK_WriteReg(R6, 0x00000000)  returns 0x00 (0000ms, 0717ms total)
T1DD4 001:182 JLINK_WriteReg(R7, 0x00000000)  returns 0x00 (0000ms, 0717ms total)
T1DD4 001:182 JLINK_WriteReg(R8, 0x00000000)  returns 0x00 (0000ms, 0717ms total)
T1DD4 001:182 JLINK_WriteReg(R9, 0x20000160)  returns 0x00 (0000ms, 0717ms total)
T1DD4 001:182 JLINK_WriteReg(R10, 0x00000000)  returns 0x00 (0000ms, 0717ms total)
T1DD4 001:182 JLINK_WriteReg(R11, 0x00000000)  returns 0x00 (0000ms, 0717ms total)
T1DD4 001:182 JLINK_WriteReg(R12, 0x00000000)  returns 0x00 (0000ms, 0717ms total)
T1DD4 001:182 JLINK_WriteReg(R13 (SP), 0x20001000)  returns 0x00 (0000ms, 0717ms total)
T1DD4 001:182 JLINK_WriteReg(R14, 0x20000001)  returns 0x00 (0000ms, 0717ms total)
T1DD4 001:182 JLINK_WriteReg(R15 (PC), 0x200000F4)  returns 0x00 (0000ms, 0717ms total)
T1DD4 001:182 JLINK_WriteReg(XPSR, 0x01000000)  returns 0x00 (0000ms, 0717ms total)
T1DD4 001:182 JLINK_WriteReg(MSP, 0x20001000)  returns 0x00 (0000ms, 0717ms total)
T1DD4 001:182 JLINK_WriteReg(PSP, 0x20001000)  returns 0x00 (0000ms, 0717ms total)
T1DD4 001:182 JLINK_WriteReg(CFBP, 0x00000000)  returns 0x00 (0000ms, 0717ms total)
T1DD4 001:182 JLINK_SetBPEx(Addr = 0x20000000, Type = 0xFFFFFFF2)  returns 0x00000008 (0000ms, 0717ms total)
T1DD4 001:182 JLINK_Go() (0003ms, 0720ms total)
T1DD4 001:185 JLINK_IsHalted()  returns FALSE (0000ms, 0720ms total)
T1DD4 001:195 JLINK_IsHalted()  returns FALSE (0000ms, 0720ms total)
T1DD4 001:197 JLINK_IsHalted()  returns FALSE (0001ms, 0721ms total)
T1DD4 001:199 JLINK_IsHalted()  returns FALSE (0001ms, 0721ms total)
T1DD4 001:201 JLINK_IsHalted()  returns FALSE (0001ms, 0721ms total)
T1DD4 001:203 JLINK_IsHalted()  returns FALSE (0001ms, 0721ms total)
T1DD4 001:205 JLINK_IsHalted()  returns FALSE (0001ms, 0721ms total)
T1DD4 001:207 JLINK_IsHalted()  returns FALSE (0000ms, 0720ms total)
T1DD4 001:209 JLINK_IsHalted()  returns FALSE (0000ms, 0720ms total)
T1DD4 001:211 JLINK_IsHalted()  returns FALSE (0000ms, 0720ms total)
T1DD4 001:213 JLINK_IsHalted()  returns FALSE (0000ms, 0720ms total)
T1DD4 001:215 JLINK_IsHalted()  returns FALSE (0000ms, 0720ms total)
T1DD4 001:217 JLINK_IsHalted() -- CPU_ReadMem(2 bytes @ 0x20000000)  returns TRUE (0005ms, 0725ms total)
T1DD4 001:222 JLINK_ReadReg(R15 (PC))  returns 0x20000000 (0000ms, 0720ms total)
T1DD4 001:222 JLINK_ClrBPEx(BPHandle = 0x00000008)  returns 0x00 (0000ms, 0720ms total)
T1DD4 001:222 JLINK_ReadReg(R0)  returns 0x00000000 (0000ms, 0720ms total)
T1DD4 001:223 JLINK_WriteMem(0x20000164, 0x0400 Bytes, ...) - Data: 30 03 00 20 B4 0C 00 20 18 04 00 20 FA 48 CE 3B ... -- CPU_WriteMem(1024 bytes @ 0x20000164)  returns 0x400 (0011ms, 0731ms total)
T1DD4 001:234 JLINK_WriteReg(R0, 0x08001000)  returns 0x00 (0000ms, 0731ms total)
T1DD4 001:234 JLINK_WriteReg(R1, 0x00000400)  returns 0x00 (0000ms, 0731ms total)
T1DD4 001:234 JLINK_WriteReg(R2, 0x20000164)  returns 0x00 (0000ms, 0731ms total)
T1DD4 001:234 JLINK_WriteReg(R3, 0x00000000)  returns 0x00 (0000ms, 0731ms total)
T1DD4 001:234 JLINK_WriteReg(R4, 0x00000000)  returns 0x00 (0000ms, 0731ms total)
T1DD4 001:234 JLINK_WriteReg(R5, 0x00000000)  returns 0x00 (0000ms, 0731ms total)
T1DD4 001:234 JLINK_WriteReg(R6, 0x00000000)  returns 0x00 (0000ms, 0731ms total)
T1DD4 001:234 JLINK_WriteReg(R7, 0x00000000)  returns 0x00 (0000ms, 0731ms total)
T1DD4 001:234 JLINK_WriteReg(R8, 0x00000000)  returns 0x00 (0000ms, 0731ms total)
T1DD4 001:234 JLINK_WriteReg(R9, 0x20000160)  returns 0x00 (0000ms, 0731ms total)
T1DD4 001:234 JLINK_WriteReg(R10, 0x00000000)  returns 0x00 (0000ms, 0731ms total)
T1DD4 001:234 JLINK_WriteReg(R11, 0x00000000)  returns 0x00 (0000ms, 0731ms total)
T1DD4 001:234 JLINK_WriteReg(R12, 0x00000000)  returns 0x00 (0000ms, 0731ms total)
T1DD4 001:234 JLINK_WriteReg(R13 (SP), 0x20001000)  returns 0x00 (0000ms, 0731ms total)
T1DD4 001:234 JLINK_WriteReg(R14, 0x20000001)  returns 0x00 (0000ms, 0731ms total)
T1DD4 001:234 JLINK_WriteReg(R15 (PC), 0x200000F4)  returns 0x00 (0000ms, 0731ms total)
T1DD4 001:234 JLINK_WriteReg(XPSR, 0x01000000)  returns 0x00 (0000ms, 0731ms total)
T1DD4 001:234 JLINK_WriteReg(MSP, 0x20001000)  returns 0x00 (0000ms, 0731ms total)
T1DD4 001:234 JLINK_WriteReg(PSP, 0x20001000)  returns 0x00 (0000ms, 0731ms total)
T1DD4 001:234 JLINK_WriteReg(CFBP, 0x00000000)  returns 0x00 (0000ms, 0731ms total)
T1DD4 001:234 JLINK_SetBPEx(Addr = 0x20000000, Type = 0xFFFFFFF2)  returns 0x00000009 (0000ms, 0731ms total)
T1DD4 001:234 JLINK_Go() (0003ms, 0734ms total)
T1DD4 001:237 JLINK_IsHalted()  returns FALSE (0000ms, 0734ms total)
T1DD4 001:239 JLINK_IsHalted()  returns FALSE (0001ms, 0735ms total)
T1DD4 001:242 JLINK_IsHalted()  returns FALSE (0000ms, 0734ms total)
T1DD4 001:244 JLINK_IsHalted()  returns FALSE (0000ms, 0734ms total)
T1DD4 001:246 JLINK_IsHalted()  returns FALSE (0001ms, 0735ms total)
T1DD4 001:249 JLINK_IsHalted()  returns FALSE (0000ms, 0734ms total)
T1DD4 001:251 JLINK_IsHalted()  returns FALSE (0001ms, 0735ms total)
T1DD4 001:253 JLINK_IsHalted()  returns FALSE (0001ms, 0735ms total)
T1DD4 001:255 JLINK_IsHalted()  returns FALSE (0001ms, 0735ms total)
T1DD4 001:257 JLINK_IsHalted()  returns FALSE (0000ms, 0734ms total)
T1DD4 001:267 JLINK_IsHalted() -- CPU_ReadMem(2 bytes @ 0x20000000)  returns TRUE (0005ms, 0739ms total)
T1DD4 001:272 JLINK_ReadReg(R15 (PC))  returns 0x20000000 (0000ms, 0734ms total)
T1DD4 001:272 JLINK_ClrBPEx(BPHandle = 0x00000009)  returns 0x00 (0000ms, 0734ms total)
T1DD4 001:272 JLINK_ReadReg(R0)  returns 0x00000000 (0000ms, 0734ms total)
T1DD4 001:273 JLINK_WriteMem(0x20000164, 0x0400 Bytes, ...) - Data: 6D 1C AD B2 B5 42 F5 D3 BD E8 F0 41 FF F7 8A BF ... -- CPU_WriteMem(1024 bytes @ 0x20000164)  returns 0x400 (0010ms, 0744ms total)
T1DD4 001:284 JLINK_WriteReg(R0, 0x08001400)  returns 0x00 (0000ms, 0745ms total)
T1DD4 001:284 JLINK_WriteReg(R1, 0x00000400)  returns 0x00 (0000ms, 0745ms total)
T1DD4 001:284 JLINK_WriteReg(R2, 0x20000164)  returns 0x00 (0000ms, 0745ms total)
T1DD4 001:284 JLINK_WriteReg(R3, 0x00000000)  returns 0x00 (0000ms, 0745ms total)
T1DD4 001:284 JLINK_WriteReg(R4, 0x00000000)  returns 0x00 (0000ms, 0745ms total)
T1DD4 001:284 JLINK_WriteReg(R5, 0x00000000)  returns 0x00 (0000ms, 0745ms total)
T1DD4 001:284 JLINK_WriteReg(R6, 0x00000000)  returns 0x00 (0000ms, 0745ms total)
T1DD4 001:284 JLINK_WriteReg(R7, 0x00000000)  returns 0x00 (0000ms, 0745ms total)
T1DD4 001:284 JLINK_WriteReg(R8, 0x00000000)  returns 0x00 (0000ms, 0745ms total)
T1DD4 001:284 JLINK_WriteReg(R9, 0x20000160)  returns 0x00 (0000ms, 0745ms total)
T1DD4 001:284 JLINK_WriteReg(R10, 0x00000000)  returns 0x00 (0000ms, 0745ms total)
T1DD4 001:284 JLINK_WriteReg(R11, 0x00000000)  returns 0x00 (0000ms, 0745ms total)
T1DD4 001:284 JLINK_WriteReg(R12, 0x00000000)  returns 0x00 (0000ms, 0745ms total)
T1DD4 001:284 JLINK_WriteReg(R13 (SP), 0x20001000)  returns 0x00 (0000ms, 0745ms total)
T1DD4 001:284 JLINK_WriteReg(R14, 0x20000001)  returns 0x00 (0000ms, 0745ms total)
T1DD4 001:284 JLINK_WriteReg(R15 (PC), 0x200000F4)  returns 0x00 (0000ms, 0745ms total)
T1DD4 001:284 JLINK_WriteReg(XPSR, 0x01000000)  returns 0x00 (0000ms, 0745ms total)
T1DD4 001:284 JLINK_WriteReg(MSP, 0x20001000)  returns 0x00 (0000ms, 0745ms total)
T1DD4 001:284 JLINK_WriteReg(PSP, 0x20001000)  returns 0x00 (0000ms, 0745ms total)
T1DD4 001:284 JLINK_WriteReg(CFBP, 0x00000000)  returns 0x00 (0000ms, 0745ms total)
T1DD4 001:284 JLINK_SetBPEx(Addr = 0x20000000, Type = 0xFFFFFFF2)  returns 0x0000000A (0000ms, 0745ms total)
T1DD4 001:284 JLINK_Go() (0003ms, 0748ms total)
T1DD4 001:287 JLINK_IsHalted()  returns FALSE (0000ms, 0748ms total)
T1DD4 001:309 JLINK_IsHalted()  returns FALSE (0000ms, 0748ms total)
T1DD4 001:311 JLINK_IsHalted()  returns FALSE (0000ms, 0748ms total)
T1DD4 001:313 JLINK_IsHalted()  returns FALSE (0000ms, 0748ms total)
T1DD4 001:316 JLINK_IsHalted()  returns FALSE (0000ms, 0748ms total)
T1DD4 001:318 JLINK_IsHalted() -- CPU_ReadMem(2 bytes @ 0x20000000)  returns TRUE (0004ms, 0752ms total)
T1DD4 001:322 JLINK_ReadReg(R15 (PC))  returns 0x20000000 (0000ms, 0748ms total)
T1DD4 001:322 JLINK_ClrBPEx(BPHandle = 0x0000000A)  returns 0x00 (0000ms, 0748ms total)
T1DD4 001:322 JLINK_ReadReg(R0)  returns 0x00000000 (0000ms, 0748ms total)
T1DD4 001:323 JLINK_WriteMem(0x20000164, 0x0400 Bytes, ...) - Data: 25 FF 10 B9 64 1E A4 B2 F7 D2 00 22 41 46 48 46 ... -- CPU_WriteMem(1024 bytes @ 0x20000164)  returns 0x400 (0011ms, 0759ms total)
T1DD4 001:334 JLINK_WriteReg(R0, 0x08001800)  returns 0x00 (0000ms, 0759ms total)
T1DD4 001:334 JLINK_WriteReg(R1, 0x00000400)  returns 0x00 (0000ms, 0759ms total)
T1DD4 001:334 JLINK_WriteReg(R2, 0x20000164)  returns 0x00 (0000ms, 0759ms total)
T1DD4 001:334 JLINK_WriteReg(R3, 0x00000000)  returns 0x00 (0000ms, 0759ms total)
T1DD4 001:334 JLINK_WriteReg(R4, 0x00000000)  returns 0x00 (0000ms, 0759ms total)
T1DD4 001:334 JLINK_WriteReg(R5, 0x00000000)  returns 0x00 (0000ms, 0759ms total)
T1DD4 001:334 JLINK_WriteReg(R6, 0x00000000)  returns 0x00 (0000ms, 0759ms total)
T1DD4 001:334 JLINK_WriteReg(R7, 0x00000000)  returns 0x00 (0000ms, 0759ms total)
T1DD4 001:334 JLINK_WriteReg(R8, 0x00000000)  returns 0x00 (0000ms, 0759ms total)
T1DD4 001:334 JLINK_WriteReg(R9, 0x20000160)  returns 0x00 (0000ms, 0759ms total)
T1DD4 001:334 JLINK_WriteReg(R10, 0x00000000)  returns 0x00 (0000ms, 0759ms total)
T1DD4 001:334 JLINK_WriteReg(R11, 0x00000000)  returns 0x00 (0000ms, 0759ms total)
T1DD4 001:334 JLINK_WriteReg(R12, 0x00000000)  returns 0x00 (0000ms, 0759ms total)
T1DD4 001:334 JLINK_WriteReg(R13 (SP), 0x20001000)  returns 0x00 (0000ms, 0759ms total)
T1DD4 001:334 JLINK_WriteReg(R14, 0x20000001)  returns 0x00 (0000ms, 0759ms total)
T1DD4 001:334 JLINK_WriteReg(R15 (PC), 0x200000F4)  returns 0x00 (0000ms, 0759ms total)
T1DD4 001:334 JLINK_WriteReg(XPSR, 0x01000000)  returns 0x00 (0000ms, 0759ms total)
T1DD4 001:334 JLINK_WriteReg(MSP, 0x20001000)  returns 0x00 (0000ms, 0759ms total)
T1DD4 001:334 JLINK_WriteReg(PSP, 0x20001000)  returns 0x00 (0000ms, 0759ms total)
T1DD4 001:334 JLINK_WriteReg(CFBP, 0x00000000)  returns 0x00 (0000ms, 0759ms total)
T1DD4 001:334 JLINK_SetBPEx(Addr = 0x20000000, Type = 0xFFFFFFF2)  returns 0x0000000B (0000ms, 0759ms total)
T1DD4 001:334 JLINK_Go() (0002ms, 0761ms total)
T1DD4 001:336 JLINK_IsHalted()  returns FALSE (0000ms, 0761ms total)
T1DD4 001:338 JLINK_IsHalted()  returns FALSE (0000ms, 0761ms total)
T1DD4 001:340 JLINK_IsHalted()  returns FALSE (0000ms, 0761ms total)
T1DD4 001:342 JLINK_IsHalted()  returns FALSE (0000ms, 0761ms total)
T1DD4 001:344 JLINK_IsHalted()  returns FALSE (0000ms, 0761ms total)
T1DD4 001:346 JLINK_IsHalted()  returns FALSE (0000ms, 0761ms total)
T1DD4 001:348 JLINK_IsHalted()  returns FALSE (0000ms, 0761ms total)
T1DD4 001:350 JLINK_IsHalted()  returns FALSE (0000ms, 0761ms total)
T1DD4 001:352 JLINK_IsHalted()  returns FALSE (0000ms, 0761ms total)
T1DD4 001:354 JLINK_IsHalted()  returns FALSE (0000ms, 0761ms total)
T1DD4 001:356 JLINK_IsHalted()  returns FALSE (0000ms, 0761ms total)
T1DD4 001:358 JLINK_IsHalted()  returns FALSE (0000ms, 0761ms total)
T1DD4 001:360 JLINK_IsHalted()  returns FALSE (0000ms, 0761ms total)
T1DD4 001:362 JLINK_IsHalted()  returns FALSE (0000ms, 0761ms total)
T1DD4 001:364 JLINK_IsHalted()  returns FALSE (0000ms, 0761ms total)
T1DD4 001:366 JLINK_IsHalted()  returns FALSE (0000ms, 0761ms total)
T1DD4 001:368 JLINK_IsHalted() -- CPU_ReadMem(2 bytes @ 0x20000000)  returns TRUE (0005ms, 0766ms total)
T1DD4 001:373 JLINK_ReadReg(R15 (PC))  returns 0x20000000 (0000ms, 0761ms total)
T1DD4 001:373 JLINK_ClrBPEx(BPHandle = 0x0000000B)  returns 0x00 (0000ms, 0761ms total)
T1DD4 001:373 JLINK_ReadReg(R0)  returns 0x00000000 (0000ms, 0761ms total)
T1DD4 001:373 JLINK_WriteMem(0x20000164, 0x0400 Bytes, ...) - Data: 68 01 00 20 00 54 00 40 2D E9 F0 41 0E 46 07 46 ... -- CPU_WriteMem(1024 bytes @ 0x20000164)  returns 0x400 (0011ms, 0772ms total)
T1DD4 001:384 JLINK_WriteReg(R0, 0x08001C00)  returns 0x00 (0000ms, 0772ms total)
T1DD4 001:384 JLINK_WriteReg(R1, 0x00000400)  returns 0x00 (0000ms, 0772ms total)
T1DD4 001:384 JLINK_WriteReg(R2, 0x20000164)  returns 0x00 (0000ms, 0772ms total)
T1DD4 001:384 JLINK_WriteReg(R3, 0x00000000)  returns 0x00 (0000ms, 0772ms total)
T1DD4 001:384 JLINK_WriteReg(R4, 0x00000000)  returns 0x00 (0000ms, 0772ms total)
T1DD4 001:384 JLINK_WriteReg(R5, 0x00000000)  returns 0x00 (0000ms, 0772ms total)
T1DD4 001:384 JLINK_WriteReg(R6, 0x00000000)  returns 0x00 (0000ms, 0772ms total)
T1DD4 001:384 JLINK_WriteReg(R7, 0x00000000)  returns 0x00 (0000ms, 0772ms total)
T1DD4 001:384 JLINK_WriteReg(R8, 0x00000000)  returns 0x00 (0000ms, 0772ms total)
T1DD4 001:384 JLINK_WriteReg(R9, 0x20000160)  returns 0x00 (0000ms, 0772ms total)
T1DD4 001:384 JLINK_WriteReg(R10, 0x00000000)  returns 0x00 (0000ms, 0772ms total)
T1DD4 001:384 JLINK_WriteReg(R11, 0x00000000)  returns 0x00 (0000ms, 0772ms total)
T1DD4 001:384 JLINK_WriteReg(R12, 0x00000000)  returns 0x00 (0000ms, 0772ms total)
T1DD4 001:384 JLINK_WriteReg(R13 (SP), 0x20001000)  returns 0x00 (0000ms, 0772ms total)
T1DD4 001:384 JLINK_WriteReg(R14, 0x20000001)  returns 0x00 (0000ms, 0772ms total)
T1DD4 001:384 JLINK_WriteReg(R15 (PC), 0x200000F4)  returns 0x00 (0000ms, 0772ms total)
T1DD4 001:384 JLINK_WriteReg(XPSR, 0x01000000)  returns 0x00 (0000ms, 0772ms total)
T1DD4 001:384 JLINK_WriteReg(MSP, 0x20001000)  returns 0x00 (0000ms, 0772ms total)
T1DD4 001:384 JLINK_WriteReg(PSP, 0x20001000)  returns 0x00 (0000ms, 0772ms total)
T1DD4 001:384 JLINK_WriteReg(CFBP, 0x00000000)  returns 0x00 (0000ms, 0772ms total)
T1DD4 001:384 JLINK_SetBPEx(Addr = 0x20000000, Type = 0xFFFFFFF2)  returns 0x0000000C (0000ms, 0772ms total)
T1DD4 001:384 JLINK_Go() (0002ms, 0774ms total)
T1DD4 001:386 JLINK_IsHalted()  returns FALSE (0001ms, 0775ms total)
T1DD4 001:397 JLINK_IsHalted()  returns FALSE (0001ms, 0775ms total)
T1DD4 001:400 JLINK_IsHalted()  returns FALSE (0000ms, 0774ms total)
T1DD4 001:406 JLINK_IsHalted()  returns FALSE (0001ms, 0775ms total)
T1DD4 001:409 JLINK_IsHalted()  returns FALSE (0001ms, 0775ms total)
T1DD4 001:411 JLINK_IsHalted()  returns FALSE (0001ms, 0775ms total)
T1DD4 001:413 JLINK_IsHalted()  returns FALSE (0001ms, 0775ms total)
T1DD4 001:416 JLINK_IsHalted()  returns FALSE (0000ms, 0774ms total)
T1DD4 001:418 JLINK_IsHalted() -- CPU_ReadMem(2 bytes @ 0x20000000)  returns TRUE (0005ms, 0779ms total)
T1DD4 001:423 JLINK_ReadReg(R15 (PC))  returns 0x20000000 (0000ms, 0774ms total)
T1DD4 001:423 JLINK_ClrBPEx(BPHandle = 0x0000000C)  returns 0x00 (0000ms, 0774ms total)
T1DD4 001:423 JLINK_ReadReg(R0)  returns 0x00000000 (0000ms, 0774ms total)
T1DD4 001:424 JLINK_WriteMem(0x20000164, 0x0400 Bytes, ...) - Data: 00 20 E0 E7 00 54 00 40 53 48 54 32 30 5F 72 65 ... -- CPU_WriteMem(1024 bytes @ 0x20000164)  returns 0x400 (0010ms, 0784ms total)
T1DD4 001:434 JLINK_WriteReg(R0, 0x08002000)  returns 0x00 (0000ms, 0784ms total)
T1DD4 001:434 JLINK_WriteReg(R1, 0x00000400)  returns 0x00 (0000ms, 0784ms total)
T1DD4 001:434 JLINK_WriteReg(R2, 0x20000164)  returns 0x00 (0000ms, 0784ms total)
T1DD4 001:434 JLINK_WriteReg(R3, 0x00000000)  returns 0x00 (0000ms, 0784ms total)
T1DD4 001:434 JLINK_WriteReg(R4, 0x00000000)  returns 0x00 (0000ms, 0784ms total)
T1DD4 001:434 JLINK_WriteReg(R5, 0x00000000)  returns 0x00 (0001ms, 0785ms total)
T1DD4 001:435 JLINK_WriteReg(R6, 0x00000000)  returns 0x00 (0000ms, 0785ms total)
T1DD4 001:435 JLINK_WriteReg(R7, 0x00000000)  returns 0x00 (0000ms, 0785ms total)
T1DD4 001:435 JLINK_WriteReg(R8, 0x00000000)  returns 0x00 (0000ms, 0785ms total)
T1DD4 001:435 JLINK_WriteReg(R9, 0x20000160)  returns 0x00 (0000ms, 0785ms total)
T1DD4 001:435 JLINK_WriteReg(R10, 0x00000000)  returns 0x00 (0000ms, 0785ms total)
T1DD4 001:435 JLINK_WriteReg(R11, 0x00000000)  returns 0x00 (0000ms, 0785ms total)
T1DD4 001:435 JLINK_WriteReg(R12, 0x00000000)  returns 0x00 (0000ms, 0785ms total)
T1DD4 001:435 JLINK_WriteReg(R13 (SP), 0x20001000)  returns 0x00 (0000ms, 0785ms total)
T1DD4 001:435 JLINK_WriteReg(R14, 0x20000001)  returns 0x00 (0000ms, 0785ms total)
T1DD4 001:435 JLINK_WriteReg(R15 (PC), 0x200000F4)  returns 0x00 (0000ms, 0785ms total)
T1DD4 001:435 JLINK_WriteReg(XPSR, 0x01000000)  returns 0x00 (0000ms, 0785ms total)
T1DD4 001:435 JLINK_WriteReg(MSP, 0x20001000)  returns 0x00 (0000ms, 0785ms total)
T1DD4 001:435 JLINK_WriteReg(PSP, 0x20001000)  returns 0x00 (0000ms, 0785ms total)
T1DD4 001:435 JLINK_WriteReg(CFBP, 0x00000000)  returns 0x00 (0000ms, 0785ms total)
T1DD4 001:435 JLINK_SetBPEx(Addr = 0x20000000, Type = 0xFFFFFFF2)  returns 0x0000000D (0000ms, 0785ms total)
T1DD4 001:435 JLINK_Go() (0002ms, 0787ms total)
T1DD4 001:437 JLINK_IsHalted()  returns FALSE (0001ms, 0788ms total)
T1DD4 001:440 JLINK_IsHalted()  returns FALSE (0000ms, 0787ms total)
T1DD4 001:442 JLINK_IsHalted()  returns FALSE (0001ms, 0788ms total)
T1DD4 001:444 JLINK_IsHalted()  returns FALSE (0001ms, 0788ms total)
T1DD4 001:446 JLINK_IsHalted()  returns FALSE (0000ms, 0787ms total)
T1DD4 001:448 JLINK_IsHalted()  returns FALSE (0000ms, 0787ms total)
T1DD4 001:450 JLINK_IsHalted()  returns FALSE (0000ms, 0787ms total)
T1DD4 001:452 JLINK_IsHalted()  returns FALSE (0000ms, 0787ms total)
T1DD4 001:454 JLINK_IsHalted()  returns FALSE (0000ms, 0787ms total)
T1DD4 001:456 JLINK_IsHalted()  returns FALSE (0000ms, 0787ms total)
T1DD4 001:458 JLINK_IsHalted()  returns FALSE (0000ms, 0787ms total)
T1DD4 001:460 JLINK_IsHalted()  returns FALSE (0000ms, 0787ms total)
T1DD4 001:462 JLINK_IsHalted()  returns FALSE (0000ms, 0787ms total)
T1DD4 001:464 JLINK_IsHalted()  returns FALSE (0000ms, 0787ms total)
T1DD4 001:466 JLINK_IsHalted()  returns FALSE (0000ms, 0787ms total)
T1DD4 001:468 JLINK_IsHalted() -- CPU_ReadMem(2 bytes @ 0x20000000)  returns TRUE (0005ms, 0792ms total)
T1DD4 001:473 JLINK_ReadReg(R15 (PC))  returns 0x20000000 (0000ms, 0787ms total)
T1DD4 001:473 JLINK_ClrBPEx(BPHandle = 0x0000000D)  returns 0x00 (0000ms, 0787ms total)
T1DD4 001:473 JLINK_ReadReg(R0)  returns 0x00000000 (0000ms, 0787ms total)
T1DD4 001:474 JLINK_WriteMem(0x20000164, 0x0400 Bytes, ...) - Data: 00 00 FF F8 FF FF F6 FE 08 ED 00 E0 2D E9 F0 5F ... -- CPU_WriteMem(1024 bytes @ 0x20000164)  returns 0x400 (0010ms, 0797ms total)
T1DD4 001:484 JLINK_WriteReg(R0, 0x08002400)  returns 0x00 (0000ms, 0797ms total)
T1DD4 001:484 JLINK_WriteReg(R1, 0x00000400)  returns 0x00 (0000ms, 0797ms total)
T1DD4 001:484 JLINK_WriteReg(R2, 0x20000164)  returns 0x00 (0000ms, 0797ms total)
T1DD4 001:484 JLINK_WriteReg(R3, 0x00000000)  returns 0x00 (0000ms, 0797ms total)
T1DD4 001:484 JLINK_WriteReg(R4, 0x00000000)  returns 0x00 (0000ms, 0797ms total)
T1DD4 001:484 JLINK_WriteReg(R5, 0x00000000)  returns 0x00 (0000ms, 0797ms total)
T1DD4 001:484 JLINK_WriteReg(R6, 0x00000000)  returns 0x00 (0000ms, 0797ms total)
T1DD4 001:484 JLINK_WriteReg(R7, 0x00000000)  returns 0x00 (0000ms, 0797ms total)
T1DD4 001:484 JLINK_WriteReg(R8, 0x00000000)  returns 0x00 (0000ms, 0797ms total)
T1DD4 001:484 JLINK_WriteReg(R9, 0x20000160)  returns 0x00 (0000ms, 0797ms total)
T1DD4 001:484 JLINK_WriteReg(R10, 0x00000000)  returns 0x00 (0000ms, 0797ms total)
T1DD4 001:484 JLINK_WriteReg(R11, 0x00000000)  returns 0x00 (0000ms, 0797ms total)
T1DD4 001:484 JLINK_WriteReg(R12, 0x00000000)  returns 0x00 (0001ms, 0798ms total)
T1DD4 001:485 JLINK_WriteReg(R13 (SP), 0x20001000)  returns 0x00 (0000ms, 0798ms total)
T1DD4 001:485 JLINK_WriteReg(R14, 0x20000001)  returns 0x00 (0000ms, 0798ms total)
T1DD4 001:485 JLINK_WriteReg(R15 (PC), 0x200000F4)  returns 0x00 (0000ms, 0798ms total)
T1DD4 001:485 JLINK_WriteReg(XPSR, 0x01000000)  returns 0x00 (0000ms, 0798ms total)
T1DD4 001:485 JLINK_WriteReg(MSP, 0x20001000)  returns 0x00 (0000ms, 0798ms total)
T1DD4 001:485 JLINK_WriteReg(PSP, 0x20001000)  returns 0x00 (0000ms, 0798ms total)
T1DD4 001:485 JLINK_WriteReg(CFBP, 0x00000000)  returns 0x00 (0000ms, 0798ms total)
T1DD4 001:485 JLINK_SetBPEx(Addr = 0x20000000, Type = 0xFFFFFFF2)  returns 0x0000000E (0000ms, 0798ms total)
T1DD4 001:485 JLINK_Go() (0002ms, 0800ms total)
T1DD4 001:487 JLINK_IsHalted()  returns FALSE (0001ms, 0801ms total)
T1DD4 001:501 JLINK_IsHalted()  returns FALSE (0001ms, 0801ms total)
T1DD4 001:503 JLINK_IsHalted()  returns FALSE (0000ms, 0800ms total)
T1DD4 001:505 JLINK_IsHalted()  returns FALSE (0000ms, 0800ms total)
T1DD4 001:512 JLINK_IsHalted()  returns FALSE (0000ms, 0800ms total)
T1DD4 001:514 JLINK_IsHalted()  returns FALSE (0001ms, 0801ms total)
T1DD4 001:516 JLINK_IsHalted()  returns FALSE (0001ms, 0801ms total)
T1DD4 001:518 JLINK_IsHalted() -- CPU_ReadMem(2 bytes @ 0x20000000)  returns TRUE (0005ms, 0805ms total)
T1DD4 001:523 JLINK_ReadReg(R15 (PC))  returns 0x20000000 (0000ms, 0800ms total)
T1DD4 001:523 JLINK_ClrBPEx(BPHandle = 0x0000000E)  returns 0x00 (0000ms, 0800ms total)
T1DD4 001:523 JLINK_ReadReg(R0)  returns 0x00000000 (0000ms, 0800ms total)
T1DD4 001:524 JLINK_WriteMem(0x20000164, 0x0400 Bytes, ...) - Data: 67 20 63 68 69 70 20 69 6E 66 6F 72 6D 61 74 69 ... -- CPU_WriteMem(1024 bytes @ 0x20000164)  returns 0x400 (0010ms, 0810ms total)
T1DD4 001:534 JLINK_WriteReg(R0, 0x08002800)  returns 0x00 (0000ms, 0810ms total)
T1DD4 001:534 JLINK_WriteReg(R1, 0x00000400)  returns 0x00 (0000ms, 0810ms total)
T1DD4 001:534 JLINK_WriteReg(R2, 0x20000164)  returns 0x00 (0000ms, 0810ms total)
T1DD4 001:534 JLINK_WriteReg(R3, 0x00000000)  returns 0x00 (0000ms, 0810ms total)
T1DD4 001:534 JLINK_WriteReg(R4, 0x00000000)  returns 0x00 (0000ms, 0810ms total)
T1DD4 001:534 JLINK_WriteReg(R5, 0x00000000)  returns 0x00 (0000ms, 0810ms total)
T1DD4 001:534 JLINK_WriteReg(R6, 0x00000000)  returns 0x00 (0000ms, 0810ms total)
T1DD4 001:534 JLINK_WriteReg(R7, 0x00000000)  returns 0x00 (0000ms, 0810ms total)
T1DD4 001:534 JLINK_WriteReg(R8, 0x00000000)  returns 0x00 (0000ms, 0810ms total)
T1DD4 001:535 JLINK_WriteReg(R9, 0x20000160)  returns 0x00 (0000ms, 0811ms total)
T1DD4 001:535 JLINK_WriteReg(R10, 0x00000000)  returns 0x00 (0000ms, 0811ms total)
T1DD4 001:535 JLINK_WriteReg(R11, 0x00000000)  returns 0x00 (0000ms, 0811ms total)
T1DD4 001:535 JLINK_WriteReg(R12, 0x00000000)  returns 0x00 (0000ms, 0811ms total)
